Circuit: * C:\Users\Johnny Li\Documents\LTspiceXVII\Draft1.asc

Direct Newton iteration for .op point succeeded.
Semiconductor Device Operating Points:
                        --- MOSFET Transistors ---
Name:          m1
Model:        nmos
Id:          2.50e-04
Vgs:         5.00e+00
Vds:         9.70e+00
Vbs:         0.00e+00
Vth:         0.00e+00
Vdsat:       5.00e+00
Gm:          1.00e-04
Gds:         0.00e+00
Gmb:         0.00e+00
Cbd:         0.00e+00
Cbs:         0.00e+00
Cgsov:       0.00e+00
Cgdov:       0.00e+00
Cgbov:       0.00e+00
Cgs:         0.00e+00
Cgd:         0.00e+00
Cgb:         0.00e+00



Date: Fri Mar 29 20:49:48 2019
Total elapsed time: 0.090 seconds.

tnom = 27
temp = 27
method = trap
totiter = 5
traniter = 0
tranpoints = 0
accept = 0
rejected = 0
matrix size = 5
fillins = 0
solver = Normal
Matrix Compiler1: 114 bytes object code size
Matrix Compiler2: 301 bytes object code size
